Gain [dB],Phase [rads.],Amplitude [dBm],frequency_lc
4.0,0.0,8.742777223846701e-14,-1900759.9050000578
4.0,0.07953399123012135,5.143094192869337e-13,-2037771.202500062
4.0,0.1590679824602427,4.449829895457065e-13,-2179132.0650000665
4.0,0.23860197369036407,1.3057638626752163e-13,-2321580.318750071
4.0,0.3181359649204854,1.0739077069039879e-13,-2462941.181250075
4.0,0.39766995615060674,3.6342879525660837e-13,-2611913.7825000794
4.0,0.47720394738072813,1.2471183181087087e-13,-2765235.9487500843
4.0,0.5567379386108494,1.9140316903843103e-13,-2925082.462500089
4.0,0.6362719298409708,9.484472048877777e-14,-3055569.412500093
4.0,0.7158059210710922,5.502364714913441e-13,-3221940.273750098
4.0,0.7953399123012135,3.437291607887147e-13,-3394835.4825001033
4.0,0.8748739035313349,2.260170306986186e-14,-3569905.473750109
4.0,0.9544078947614563,1.6687633475453143e-13,-3753674.5950001143
4.0,1.0339418859915777,9.661449654843269e-14,-3934181.5425001197
4.0,1.1134758772216988,5.2586760252629117e-14,-4111426.316250125
4.0,1.1930098684518202,1.4777197709805842e-13,-4316943.2625001315
4.0,1.2725438596819416,2.4154695316468545e-14,4195155.4425001275
4.0,1.352077850912063,6.376533668062284e-14,3986376.3225001213
4.0,1.4316118421421844,2.6597496327641602e-14,3785208.941250115
4.0,1.5111458333723056,1.504611553479942e-15,3581866.777500109
4.0,1.590679824602427,9.296985578274533e-14,3373087.6575001027
4.0,1.6702138158325484,1.0584947726941545e-14,3166483.320000096
4.0,1.7497478070626697,3.033973680665934e-14,2955529.41750009
4.0,1.8292817982927911,1.6799674814449124e-13,2744575.5150000835
4.0,1.9088157895229125,1.2638795770583895e-13,2536883.786250077
4.0,1.9883497807530337,5.37308261774669e-13,2327017.2750000707
4.0,2.0678837719831553,1.0894886270274959e-13,2118238.1550000645
4.0,2.1474177632132765,2.3889832732994773e-13,1900759.9050000578
4.0,2.2269517544433977,2.1042137365642267e-13,1691980.7850000516
4.0,2.3064857456735193,4.851135206725856e-15,1484289.056250045
4.0,2.3860197369036404,1.1355882237470744e-12,1279859.5012500389
4.0,2.465553728133762,6.732464399175618e-14,1079779.5112500328
4.0,2.5450877193638832,1.3773222453012571e-14,881874.3037500269
4.0,2.6246217105940044,9.419081848167466e-15,689406.052500021
4.0,2.704155701824126,1.643312758963913e-14,505636.9312500154
4.0,2.783689693054247,5.885029994527617e-14,314256.0712500096
4.0,2.863223684284369,5.406644979662252e-14,131574.341250004
4.0,2.94275767551449,9.325329847703211e-14,-41320.86750000126
4.0,3.022291666744611,4.642574624398755e-14,683969.0962500208
4.0,3.1018256579747328,3.602277029006574e-14,-374062.5900000114
4.0,3.181359649204854,1.0179000531078274e-12,374062.5900000114
4.0,3.2608936404349755,4.359798111382046e-14,214216.07625000653
4.0,3.3404276316650967,2.445140262960076e-14,41320.86750000126
4.0,3.419961622895218,1.2620863239423721e-14,-131574.341250004
4.0,3.4994956141253395,1.115589903945258e-12,-314256.0712500096
4.0,3.5790296053554607,3.013204430343655e-14,-505636.9312500154
4.0,3.6585635965855823,2.739116557408897e-14,-689406.052500021
4.0,3.7380975878157034,4.279301065758762e-14,-881874.3037500269
4.0,3.817631579045825,7.187361340514755e-14,-1079779.5112500328
4.0,3.8971655702759462,3.5958792460529545e-14,-1279859.5012500389
4.0,3.9766995615060674,1.6873415463103407e-13,-1484289.056250045
4.0,4.056233552736189,9.268803139182395e-15,-1793108.1712500546
4.0,4.135767543966311,3.2155352756286818e-15,-1900759.9050000578
4.0,4.215301535196431,2.215898682258557e-14,-2118238.1550000645
4.0,4.294835526426553,8.017795941295189e-15,-2327017.2750000707
4.0,4.374369517656675,4.0546531197173235e-14,-2536883.786250077
4.0,4.453903508886795,5.301248950588126e-14,-2744575.5150000835
4.0,4.533437500116917,2.9209537775852186e-15,-2955529.41750009
4.0,4.6129714913470385,7.239963394968899e-13,-3166483.320000096
4.0,4.692505482577159,1.0238006747285703e-13,-3373087.6575001027
4.0,4.772039473807281,6.571344157646815e-13,-3581866.777500109
4.0,4.8515734650374025,1.048295533121979e-14,-3785208.941250115
4.0,4.931107456267524,3.6655972111443034e-14,-3986376.3225001213
4.0,5.010641447497645,2.0603450169238422e-14,-4195155.4425001275
4.0,5.0901754387277665,4.49775925313599e-14,4316943.2625001315
4.0,5.169709429957888,2.3951919096820196e-13,4111426.316250125
4.0,5.249243421188009,4.2282843212578517e-14,3934181.5425001197
4.0,5.32877741241813,5.798605189013704e-14,3753674.5950001143
4.0,5.408311403648252,4.167168832635592e-13,3569905.473750109
4.0,5.487845394878374,1.0011571955650916e-13,3394835.4825001033
4.0,5.567379386108494,1.7672362636438604e-12,3221940.273750098
4.0,5.646913377338616,5.265902845746541e-14,3055569.412500093
4.0,5.726447368568738,6.609857904501979e-14,2925082.462500089
4.0,5.805981359798858,1.3991180880226745e-14,2765235.9487500843
4.0,5.88551535102898,7.909309291641558e-14,2611913.7825000794
4.0,5.9650493422591016,3.0366631492115043e-14,2462941.181250075
4.0,6.044583333489222,6.055441354639047e-14,2321580.318750071
4.0,6.124117324719344,8.118112203638521e-13,2179132.0650000665
4.0,6.2036513159494655,9.211030977117112e-14,2037771.202500062
4.0,6.283185307179586,8.742777223570596e-14,-1900759.9050000578
4.055696202531646,0.0,1.0874480676664474e-12,-1864875.9937500567
4.055696202531646,0.07953399123012135,1.9736902437576305e-13,-2002974.6825000609
4.055696202531646,0.1590679824602427,6.194272348275245e-14,-2144335.545000065
4.055696202531646,0.23860197369036407,3.646028241463869e-13,-2290045.9725000695
4.055696202531646,0.3181359649204854,3.736120949512842e-13,-2429232.052500074
4.055696202531646,0.39766995615060674,1.7258955376505089e-13,-2580379.4362500785
4.055696202531646,0.47720394738072813,1.279972246773246e-13,-2734788.9937500833
4.055696202531646,0.5567379386108494,1.5197420059635718e-14,-2890285.942500088
4.055696202531646,0.6362719298409708,1.484624180581711e-13,-3056656.803750093
4.055696202531646,0.7158059210710922,9.220629029523206e-15,-3191493.318750097
4.055696202531646,0.7953399123012135,1.6550517279386565e-13,-3362213.7450001026
4.055696202531646,0.8748739035313349,2.3551677744948347e-14,-3541633.3012501076
4.055696202531646,0.9544078947614563,2.2593610198391347e-13,-3721052.857500113
4.055696202531646,1.0339418859915777,1.6075304507203766e-13,-3900472.4137501186
4.055696202531646,1.1134758772216988,8.403923729849288e-13,-4084241.5350001245
4.055696202531646,1.1930098684518202,3.2644282228591017e-15,-4290845.872500131
4.055696202531646,1.2725438596819416,4.665803216881838e-13,4221252.832500128
4.055696202531646,1.352077850912063,1.8202519335752376e-12,4014648.495000122
4.055696202531646,1.4316118421421844,7.766646709258959e-15,3809131.548750116
4.055696202531646,1.5111458333723056,1.4359895045693165e-13,3602527.2112501096
4.055696202531646,1.590679824602427,3.785843995780028e-14,3394835.4825001033
4.055696202531646,1.6702138158325484,7.027957230326147e-16,3187143.753750097
4.055696202531646,1.7497478070626697,1.0865805701319342e-12,2975102.4600000908
4.055696202531646,1.8292817982927911,7.074702582952544e-14,2763061.166250084
4.055696202531646,1.9088157895229125,1.1661001822089242e-14,2555369.4375000778
4.055696202531646,1.9883497807530337,3.8130740173780204e-14,2345502.9262500713
4.055696202531646,2.0678837719831553,9.419692540216919e-14,2130199.458750065
4.055696202531646,2.1474177632132765,1.876269159283248e-13,1917070.7737500584
4.055696202531646,2.2269517544433977,4.6052278142355425e-14,1705029.480000052
4.055696202531646,2.3064857456735193,2.6867051162951884e-14,1496250.3600000455
4.055696202531646,2.3860197369036404,3.705509286735324e-14,1290733.4137500392
4.055696202531646,2.465553728133762,2.1007891995692872e-12,1089566.0325000333
4.055696202531646,2.5450877193638832,1.078202883442356e-14,890573.4337500271
4.055696202531646,2.6246217105940044,4.813812087534079e-13,697017.7912500212
4.055696202531646,2.704155701824126,3.6249599766294e-14,511073.88750001555
4.055696202531646,2.783689693054247,2.0059945664260763e-13,319693.02750000975
4.055696202531646,2.863223684284369,4.049285130617114e-14,134836.51500000412
4.055696202531646,2.94275767551449,1.4857786093324254e-13,836203.8712500255
4.055696202531646,3.022291666744611,1.3662780663701146e-14,-208779.12000000634
4.055696202531646,3.1018256579747328,5.009270126515e-13,532821.7125000162
4.055696202531646,3.181359649204854,1.457199690758382e-13,-532821.7125000162
4.055696202531646,3.2608936404349755,1.4897945404792263e-14,208779.12000000634
4.055696202531646,3.3404276316650967,1.455782574075584e-12,-836203.8712500255
4.055696202531646,3.419961622895218,1.7994480350098283e-14,-134836.51500000412
4.055696202531646,3.4994956141253395,1.4944912854409917e-13,-319693.02750000975
4.055696202531646,3.5790296053554607,1.1854613011649634e-13,-511073.88750001555
4.055696202531646,3.6585635965855823,7.045519619842469e-15,-697017.7912500212
4.055696202531646,3.7380975878157034,2.0715317846187246e-13,-890573.4337500271
4.055696202531646,3.817631579045825,2.1283895196143137e-14,-1089566.0325000333
4.055696202531646,3.8971655702759462,2.9908026390648e-14,-1290733.4137500392
4.055696202531646,3.9766995615060674,9.784317680964923e-14,-1496250.3600000455
4.055696202531646,4.056233552736189,1.970250221195951e-12,-1705029.480000052
4.055696202531646,4.135767543966311,7.528527771983021e-13,-1917070.7737500584
4.055696202531646,4.215301535196431,8.705912703112794e-15,-2130199.458750065
4.055696202531646,4.294835526426553,7.42614073093538e-13,-2345502.9262500713
4.055696202531646,4.374369517656675,9.862262502776553e-14,-2555369.4375000778
4.055696202531646,4.453903508886795,5.720107100119578e-15,-2764148.557500084
4.055696202531646,4.533437500116917,1.0892429360020874e-13,-2975102.4600000908
4.055696202531646,4.6129714913470385,2.9355476248754085e-14,-3187143.753750097
4.055696202531646,4.692505482577159,1.9499437102391805e-13,-3394835.4825001033
4.055696202531646,4.772039473807281,7.768567995864605e-14,-3602527.2112501096
4.055696202531646,4.8515734650374025,8.986976699851227e-15,-3809131.548750116
4.055696202531646,4.931107456267524,3.8091605769150096e-13,-4014648.495000122
4.055696202531646,5.010641447497645,5.313116252183638e-14,-4221252.832500128
4.055696202531646,5.0901754387277665,1.1834241024606698e-12,4290845.872500131
4.055696202531646,5.169709429957888,4.942860332453546e-13,4084241.5350001245
4.055696202531646,5.249243421188009,6.149752403933854e-14,3900472.4137501186
4.055696202531646,5.32877741241813,1.2368412354582798e-14,3721052.857500113
4.055696202531646,5.408311403648252,9.89742529018806e-14,3541633.3012501076
4.055696202531646,5.487845394878374,7.211289293141339e-14,3362213.7450001026
4.055696202531646,5.567379386108494,3.8156975578314956e-13,3191493.318750097
4.055696202531646,5.646913377338616,6.526144976233136e-14,3056656.803750093
4.055696202531646,5.726447368568738,5.853033979733362e-14,2890285.942500088
4.055696202531646,5.805981359798858,4.170369382189239e-13,2734788.9937500833
4.055696202531646,5.88551535102898,2.1515959038139935e-13,2580379.4362500785
4.055696202531646,5.9650493422591016,1.405624772254009e-13,2429232.052500074
4.055696202531646,6.044583333489222,8.172851982840336e-14,2290045.9725000695
4.055696202531646,6.124117324719344,4.1820822130564945e-13,2144335.545000065
4.055696202531646,6.2036513159494655,8.485661398217112e-14,2002974.6825000609
4.055696202531646,6.283185307179586,1.087448067662186e-12,-1864875.9937500567
4.111392405063291,0.0,3.3024322958248124e-13,-1828992.0825000557
4.111392405063291,0.07953399123012135,9.646057210410707e-14,-1968178.16250006
4.111392405063291,0.1590679824602427,6.359112053590704e-14,-2110626.416250064
4.111392405063291,0.23860197369036407,2.978197645672287e-13,-2256336.8437500685
4.111392405063291,0.3181359649204854,1.5881235293838277e-13,-2398785.097500073
4.111392405063291,0.39766995615060674,1.7787778939667242e-13,-2548845.0900000776
4.111392405063291,0.47720394738072813,3.358905572232586e-14,-2703254.6475000824
4.111392405063291,0.5567379386108494,1.5547965563179536e-14,-2859838.987500087
4.111392405063291,0.6362719298409708,6.686782253434715e-14,-3026209.848750092
4.111392405063291,0.7158059210710922,1.3160240709606883e-12,-3159958.972500096
4.111392405063291,0.7953399123012135,1.6557536224461062e-14,-3335028.9637501016
4.111392405063291,0.8748739035313349,1.5254467660569048e-14,-3512273.737500107
4.111392405063291,0.9544078947614563,2.1891383333333654e-14,-3692780.6850001123
4.111392405063291,1.0339418859915777,6.172820463919996e-14,-3874375.023750118
4.111392405063291,1.1134758772216988,2.017371481790476e-14,-4066843.275000124
4.111392405063291,1.1930098684518202,2.8281751467479437e-14,-4262573.70000013
4.111392405063291,1.2725438596819416,6.066224792935057e-13,4251699.787500129
4.111392405063291,1.352077850912063,2.5095319693556374e-14,4041833.276250123
4.111392405063291,1.4316118421421844,4.0920142560813853e-13,3833054.156250117
4.111392405063291,1.5111458333723056,1.7282642730216462e-14,3626449.8187501105
4.111392405063291,1.590679824602427,4.926087120073197e-13,3417670.698750104
4.111392405063291,1.6702138158325484,2.8115163831255107e-13,3206716.7962500975
4.111392405063291,1.7497478070626697,1.0717046599435777e-13,2995762.893750091
4.111392405063291,1.8292817982927911,2.2448122152467608e-13,2609739.0000000796
4.111392405063291,1.9088157895229125,1.456528044092627e-13,2572767.6975000785
4.111392405063291,1.9883497807530337,1.0276676684634247e-14,2362901.186250072
4.111392405063291,2.0678837719831553,1.4570309221261512e-12,2144335.545000065
4.111392405063291,2.1474177632132765,1.8782554823734423e-13,1930119.4687500587
4.111392405063291,2.2269517544433977,9.961588026939055e-14,1718078.1750000522
4.111392405063291,2.3064857456735193,1.1068390927058858e-14,1508211.663750046
4.111392405063291,2.3860197369036404,4.64908433333744e-14,1301607.3262500395
4.111392405063291,2.465553728133762,8.973120576535063e-14,1098265.1625000334
4.111392405063291,2.5450877193638832,1.4986951808072048e-12,899272.5637500273
4.111392405063291,2.6246217105940044,9.019387944418591e-14,704629.5300000214
4.111392405063291,2.704155701824126,4.9739266846229935e-14,517598.23500001576
4.111392405063291,2.783689693054247,1.334478193530225e-13,1108051.6837500336
4.111392405063291,2.863223684284369,1.7853918780084451e-13,139186.08000000424
4.111392405063291,2.94275767551449,3.378398322419596e-13,-36971.302500001126
4.111392405063291,3.022291666744611,2.7247280464638522e-14,687231.270000021
4.111392405063291,3.1018256579747328,2.0388558124508458e-13,-372975.19875001133
4.111392405063291,3.181359649204854,6.3510599424183e-14,372975.19875001133
4.111392405063291,3.2608936404349755,3.0489901734919856e-14,-687231.270000021
4.111392405063291,3.3404276316650967,6.090047180134499e-13,36971.302500001126
4.111392405063291,3.419961622895218,9.586401662867738e-13,-139186.08000000424
4.111392405063291,3.4994956141253395,1.6810027570954935e-14,-1108051.6837500336
4.111392405063291,3.5790296053554607,7.958950909938197e-14,-517598.23500001576
4.111392405063291,3.6585635965855823,6.008085329312313e-13,-704629.5300000214
4.111392405063291,3.7380975878157034,6.023534649119555e-14,-899272.5637500273
4.111392405063291,3.817631579045825,1.1585876978279356e-14,-1098265.1625000334
4.111392405063291,3.8971655702759462,1.4563025252431543e-14,-1301607.3262500395
4.111392405063291,3.9766995615060674,7.447255850211402e-15,-1508211.663750046
4.111392405063291,4.056233552736189,3.776966638460606e-14,-1718078.1750000522
4.111392405063291,4.135767543966311,9.439560877882733e-14,-1930119.4687500587
4.111392405063291,4.215301535196431,4.2098772304817764e-13,-2144335.545000065
4.111392405063291,4.294835526426553,8.969756783534032e-15,-2362901.186250072
4.111392405063291,4.374369517656675,3.7650262268830436e-14,-2572767.6975000785
4.111392405063291,4.453903508886795,2.1574416771429498e-13,-2609739.0000000796
4.111392405063291,4.533437500116917,1.6060079490631253e-15,-2995762.893750091
4.111392405063291,4.6129714913470385,6.684409926230202e-14,-3206716.7962500975
4.111392405063291,4.692505482577159,7.341736117910576e-16,-3417670.698750104
4.111392405063291,4.772039473807281,1.871880724225361e-12,-3626449.8187501105
4.111392405063291,4.8515734650374025,1.2080893532931212e-14,-3833054.156250117
4.111392405063291,4.931107456267524,4.459778237692862e-14,-4041833.276250123
4.111392405063291,5.010641447497645,3.4492341277251397e-13,-4251699.787500129
4.111392405063291,5.0901754387277665,3.7758044053473664e-13,4262573.70000013
4.111392405063291,5.169709429957888,1.7286936894627376e-13,4066843.275000124
4.111392405063291,5.249243421188009,6.862742463803118e-14,3874375.023750118
4.111392405063291,5.32877741241813,6.520463255210778e-14,3692780.6850001123
4.111392405063291,5.408311403648252,2.5881720831918176e-13,3512273.737500107
4.111392405063291,5.487845394878374,1.6926713621871865e-13,3335028.9637501016
4.111392405063291,5.567379386108494,6.516469394752419e-14,3159958.972500096
4.111392405063291,5.646913377338616,1.2020208751439513e-13,3026209.848750092
4.111392405063291,5.726447368568738,2.941210275688397e-14,2859838.987500087
4.111392405063291,5.805981359798858,1.758385611563697e-13,2703254.6475000824
4.111392405063291,5.88551535102898,7.732545425101695e-13,2548845.0900000776
4.111392405063291,5.9650493422591016,2.745942349724453e-13,2398785.097500073
4.111392405063291,6.044583333489222,6.378513426359741e-14,2256336.8437500685
4.111392405063291,6.124117324719344,2.1062415114311202e-13,2110626.416250064
4.111392405063291,6.2036513159494655,8.412935056367093e-13,1968178.16250006
4.111392405063291,6.283185307179586,3.302432296113476e-13,-1828992.0825000557
4.167088607594937,0.0,1.2240427043886416e-13,-1793108.1712500546
4.167088607594937,0.07953399123012135,7.027372255183808e-14,-1932294.2512500589
4.167088607594937,0.1590679824602427,1.072717199326237e-12,-2075829.896250063
4.167088607594937,0.23860197369036407,1.551139516169235e-13,-2221540.3237500675
4.167088607594937,0.3181359649204854,9.310792225269675e-13,-2369425.533750072
4.167088607594937,0.39766995615060674,1.324546667291106e-13,-2517310.7437500767
4.167088607594937,0.47720394738072813,9.032760586329236e-13,-2670632.910000081
4.167088607594937,0.5567379386108494,4.4963377617159444e-14,-2829392.032500086
4.167088607594937,0.6362719298409708,2.7496828792582915e-13,-2999025.067500091
4.167088607594937,0.7158059210710922,2.4657240248423287e-14,-3125162.452500095
4.167088607594937,0.7953399123012135,6.681345718426023e-14,-3304582.0087501006
4.167088607594937,0.8748739035313349,3.153950883300227e-13,-3481826.782500106
4.167088607594937,0.9544078947614563,7.651708695238651e-15,-3664508.5125001115
4.167088607594937,1.0339418859915777,2.0050517757757694e-12,-3845015.460000117
4.167088607594937,1.1134758772216988,7.410446784763969e-13,-4030959.3637501225
4.167088607594937,1.1930098684518202,1.0128571742078521e-13,-4234301.527500129
4.167088607594937,1.2725438596819416,5.264134216666466e-14,4279971.96000013
4.167088607594937,1.352077850912063,4.4234171660057864e-13,4069018.057500124
4.167088607594937,1.4316118421421844,4.083380808686549e-14,3858064.1550001176
4.167088607594937,1.5111458333723056,2.3663086302740207e-13,3650372.4262501113
4.167088607594937,1.590679824602427,1.5369869470425696e-13,3440505.915000105
4.167088607594937,1.6702138158325484,1.9978017675998408e-13,3228464.621250098
4.167088607594937,1.7497478070626697,7.299476090224003e-15,3016423.327500092
4.167088607594937,1.8292817982927911,5.130399215518598e-13,2802207.2512500854
4.167088607594937,1.9088157895229125,1.8183938225115932e-14,2593428.131250079
4.167088607594937,1.9883497807530337,3.68258675193547e-14,2379212.0550000723
4.167088607594937,2.0678837719831553,1.6217467840660517e-14,2159559.0225000656
4.167088607594937,2.1474177632132765,1.8847323883739606e-13,1945342.9462500592
4.167088607594937,2.2269517544433977,1.02892546463621e-13,1733301.6525000527
4.167088607594937,2.3064857456735193,1.4932489817551728e-14,1520172.9675000464
