Gain [dB],Phase [rads.],Amplitude [dBm],Frequency [GHz]
4.0,0.017789567803776943,-42.7849235534668,5.965
4.0,0.1605746800300799,-43.40384292602539,5.965
4.0,0.30233989859762367,-43.00569152832031,5.965
4.0,0.4451250108239269,-43.02610397338867,5.965
4.0,0.5879101230502298,-42.7104606628418,5.965
4.0,0.7296753416177736,-43.14833450317383,5.965
4.0,0.8724604538440768,-43.183624267578125,5.965
4.0,1.0142256724116203,-42.946624755859375,5.965
4.0,1.1570107846379236,-43.01139831542969,5.965
4.0,1.2997958968642267,-43.17514419555664,5.965
4.0,1.4415611154317702,-42.63201522827149,5.965
4.0,1.5843462276580733,-42.74945068359375,5.965
4.0,1.7271313398843766,-42.995113372802734,5.965
4.0,1.86889655845192,-43.12042999267578,5.965
4.0,2.011681670678223,-43.019561767578125,5.965
4.0,2.153446889245767,-42.66051483154297,5.965
4.0,2.2962320014720703,-42.9066276550293,5.965
4.0,2.4390171136983736,-43.49588394165039,5.965
4.0,2.5807823322659167,-42.94501876831055,5.965
4.0,2.72356744449222,-42.901851654052734,5.965
4.0,2.8663525567185233,-43.32948303222656,5.965
4.0,3.008117775286067,-43.37980270385742,5.965
4.0,3.1509028875123697,-43.082122802734375,5.965
4.0,3.2926681060799137,-42.87489318847656,5.965
4.0,3.4354532183062165,-42.86383819580078,5.965
4.0,3.5782383305325194,-43.41188430786133,5.965
4.0,3.720003549100063,-43.00243377685547,5.965
4.0,3.862788661326366,-43.22712707519531,5.965
4.0,4.005573773552669,-43.48404312133789,5.965
4.0,4.147338992120214,-43.10540008544922,5.965
4.0,4.290124104346516,-43.06144332885742,5.965
4.0,4.431889322914061,-42.85359954833984,5.965
4.0,4.574674435140364,-42.82537460327149,5.965
4.0,4.717459547366666,-43.01840972900391,5.965
4.0,4.8592247659342105,-42.71807861328125,5.965
4.0,5.0020098781605125,-42.85832214355469,5.965
4.0,5.144794990386816,-42.99592590332031,5.965
4.0,5.28656020895436,-42.59331893920898,5.965
4.0,5.286749202571742,-42.95466995239258,5.965
4.0,5.429534314798045,-42.97161102294922,5.965
4.0,5.57129953336559,-42.938594818115234,5.965
4.0,5.714084645591892,-42.8843879699707,5.965
4.0,5.856869757818195,-42.79112243652344,5.965
4.0,5.9986349763857385,-42.90583038330078,5.965
4.0,6.141420088612042,-43.11457824707031,5.965
4.0,6.283185307179586,-42.878055572509766,5.965
4.0978,0.017789567803776943,-43.087100982666016,5.965
4.0978,0.1605746800300799,-42.56084442138672,5.965
4.0978,0.30233989859762367,-43.32772445678711,5.965
4.0978,0.4451250108239269,-43.31808471679688,5.965
4.0978,0.5879101230502298,-42.977272033691406,5.965
4.0978,0.7296753416177736,-42.76348114013672,5.965
4.0978,0.8724604538440768,-43.7387580871582,5.965
4.0978,1.0142256724116203,-42.99755096435547,5.965
4.0978,1.1570107846379236,-43.031837463378906,5.965
4.0978,1.2997958968642267,-43.18277359008789,5.965
4.0978,1.4415611154317702,-42.8843879699707,5.965
4.0978,1.5843462276580733,-43.1627311706543,5.965
4.0978,1.7271313398843766,-42.76329803466797,5.965
4.0978,1.86889655845192,-43.581539154052734,5.965
4.0978,2.011681670678223,-42.89549255371094,5.965
4.0978,2.153446889245767,-42.92338180541992,5.965
4.0978,2.2962320014720703,-43.06144332885742,5.965
4.0978,2.4390171136983736,-42.5985107421875,5.965
4.0978,2.5807823322659167,-42.71883392333984,5.965
4.0978,2.72356744449222,-43.141395568847656,5.965
4.0978,2.8663525567185233,-43.1070671081543,5.965
4.0978,3.008117775286067,-42.40271759033203,5.965
4.0978,3.1509028875123697,-43.57410430908203,5.965
4.0978,3.2926681060799137,-43.3505973815918,5.965
4.0978,3.4354532183062165,-43.25982666015625,5.965
4.0978,3.5782383305325194,-43.323341369628906,5.965
4.0978,3.720003549100063,-43.57503509521485,5.965
4.0978,3.862788661326366,-42.54176712036133,5.965
4.0978,4.005573773552669,-43.39225006103516,5.965
4.0978,4.147338992120214,-42.81990814208984,5.965
4.0978,4.290124104346516,-42.90821838378906,5.965
4.0978,4.431889322914061,-42.946624755859375,5.965
4.0978,4.574674435140364,-43.12461471557617,5.965
4.0978,4.717459547366666,-43.11541366577149,5.965
4.0978,4.8592247659342105,-42.51621627807617,5.965
4.0978,5.0020098781605125,-42.798439025878906,5.965
4.0978,5.144794990386816,-42.9853744506836,5.965
4.0978,5.28656020895436,-43.07715225219727,5.965
4.0978,5.286749202571742,-42.75175857543945,5.965
4.0978,5.429534314798045,-43.43880462646485,5.965
4.0978,5.57129953336559,-42.537376403808594,5.965
4.0978,5.714084645591892,-42.75790786743164,5.965
4.0978,5.856869757818195,-43.21086883544922,5.965
4.0978,5.9986349763857385,-42.87173080444336,5.965
4.0978,6.141420088612042,-43.13887405395508,5.965
4.0978,6.283185307179586,-43.07052993774414,5.965
4.1956,0.017789567803776943,-43.141395568847656,5.965
4.1956,0.1605746800300799,-42.96757125854492,5.965
4.1956,0.30233989859762367,-43.23227310180664,5.965
4.1956,0.4451250108239269,-43.29277420043945,5.965
4.1956,0.5879101230502298,-42.696022033691406,5.965
4.1956,0.7296753416177736,-42.77409744262695,5.965
4.1956,0.8724604538440768,-43.3417854309082,5.965
4.1956,1.0142256724116203,-43.10873794555664,5.965
4.1956,1.1570107846379236,-43.1070671081543,5.965
4.1956,1.2997958968642267,-42.81055068969727,5.965
4.1956,1.4415611154317702,-43.07632446289063,5.965
4.1956,1.5843462276580733,-42.27210998535156,5.965
4.1956,1.7271313398843766,-42.96514892578125,5.965
4.1956,1.86889655845192,-42.96353530883789,5.965
4.1956,2.011681670678223,-43.05797576904297,5.965
4.1956,2.153446889245767,-42.995113372802734,5.965
4.1956,2.2962320014720703,-42.70969772338867,5.965
4.1956,2.4390171136983736,-42.869361877441406,5.965
4.1956,2.5807823322659167,-43.37359237670898,5.965
4.1956,2.72356744449222,-42.99186325073242,5.965
4.1956,2.8663525567185233,-42.481422424316406,5.965
4.1956,3.008117775286067,-42.62156295776367,5.965
4.1956,3.1509028875123697,-43.26933670043945,5.965
4.1956,3.2926681060799137,-42.4807014465332,5.965
4.1956,3.4354532183062165,-43.39581298828125,5.965
4.1956,3.5782383305325194,-43.48040771484375,5.965
4.1956,3.720003549100063,-43.29190444946289,5.965
4.1956,3.862788661326366,-43.1070671081543,5.965
4.1956,4.005573773552669,-42.717315673828125,5.965
4.1956,4.147338992120214,-43.28060531616211,5.965
4.1956,4.290124104346516,-43.484954833984375,5.965
4.1956,4.431889322914061,-42.98245620727539,5.965
4.1956,4.574674435140364,-43.00243377685547,5.965
4.1956,4.717459547366666,-42.84627914428711,5.965
4.1956,4.8592247659342105,-42.946624755859375,5.965
4.1956,5.0020098781605125,-42.55937194824219,5.965
4.1956,5.144794990386816,-43.13719177246094,5.965
4.1956,5.28656020895436,-43.27800369262695,5.965
4.1956,5.286749202571742,-42.91938781738281,5.965
4.1956,5.429534314798045,-42.79112243652344,5.965
4.1956,5.57129953336559,-43.28147506713867,5.965
4.1956,5.714084645591892,-43.39937973022461,5.965
4.1956,5.856869757818195,-43.30499267578125,5.965
4.1956,5.9986349763857385,-42.68238830566406,5.965
4.1956,6.141420088612042,-42.9659538269043,5.965
4.1956,6.283185307179586,-42.77486801147461,5.965
4.2933,0.017789567803776943,-43.39848709106445,5.965
4.2933,0.1605746800300799,-43.74358367919922,5.965
4.2933,0.30233989859762367,-43.14307403564453,5.965
4.2933,0.4451250108239269,-42.800437927246094,5.965
4.2933,0.5879101230502298,-42.764068603515625,5.965
4.2933,0.7296753416177736,-42.75406265258789,5.965
4.2933,0.8724604538440768,-42.93218231201172,5.965
4.2933,1.0142256724116203,-42.66051483154297,5.965
4.2933,1.1570107846379236,-43.03020095825195,5.965
4.2933,1.2997958968642267,-43.17599105834961,5.965
4.2933,1.4415611154317702,-42.86699295043945,5.965
4.2933,1.5843462276580733,-42.70817947387695,5.965
4.2933,1.7271313398843766,-43.40607833862305,5.965
4.2933,1.86889655845192,-43.14475631713867,5.965
4.2933,2.011681670678223,-42.800437927246094,5.965
4.2933,2.153446889245767,-43.019561767578125,5.965
4.2933,2.2962320014720703,-42.85438919067383,5.965
4.2933,2.4390171136983736,-43.28147506713867,5.965
4.2933,2.5807823322659167,-43.56853485107422,5.965
4.2933,2.72356744449222,-42.98942947387695,5.965
4.2933,2.8663525567185233,-42.739479064941406,5.965
4.2933,3.008117775286067,-43.013031005859375,5.965
4.2933,3.1509028875123697,-43.441505432128906,5.965
4.2933,3.2926681060799137,-43.3647346496582,5.965
4.2933,3.4354532183062165,-42.959503173828125,5.965
4.2933,3.5782383305325194,-42.63949966430664,5.965
4.2933,3.720003549100063,-42.69450759887695,5.965
4.2933,3.862788661326366,-43.4487190246582,5.965
4.2933,4.005573773552669,-43.08460998535156,5.965
4.2933,4.147338992120214,-42.65976333618164,5.965
4.2933,4.290124104346516,-42.99105072021485,5.965
4.2933,4.431889322914061,-43.0118522644043,5.965
4.2933,4.574674435140364,-42.51403427124024,5.965
4.2933,4.717459547366666,-42.81210708618164,5.965
4.2933,4.8592247659342105,-42.83711242675781,5.965
4.2933,5.0020098781605125,-43.3505973815918,5.965
4.2933,5.144794990386816,-42.607418060302734,5.965
4.2933,5.28656020895436,-43.51874542236328,5.965
4.2933,5.286749202571742,-43.03675842285156,5.965
4.2933,5.429534314798045,-43.10790252685547,5.965
4.2933,5.57129953336559,-43.51324844360352,5.965
4.2933,5.714084645591892,-43.13551330566406,5.965
4.2933,5.856869757818195,-42.56820297241211,5.965
4.2933,5.9986349763857385,-43.1363525390625,5.965
4.2933,6.141420088612042,-42.98131942749024,5.965
4.2933,6.283185307179586,-43.087100982666016,5.965
4.3911,0.017789567803776943,-43.04004287719727,5.965
4.3911,0.1605746800300799,-42.91858673095703,5.965
4.3911,0.30233989859762367,-43.92598342895508,5.965
4.3911,0.4451250108239269,-43.01874542236328,5.965
4.3911,0.5879101230502298,-42.80977249145508,5.965
4.3911,0.7296753416177736,-43.06557083129883,5.965
4.3911,0.8724604538440768,-43.16330337524414,5.965
4.3911,1.0142256724116203,-42.84888458251953,5.965
4.3911,1.1570107846379236,-43.07135772705078,5.965
4.3911,1.2997958968642267,-43.66701889038086,5.965
4.3911,1.4415611154317702,-42.93538665771485,5.965
4.3911,1.5843462276580733,-42.80665969848633,5.965
4.3911,1.7271313398843766,-42.58443832397461,5.965
4.3911,1.86889655845192,-43.0490837097168,5.965
4.3911,2.011681670678223,-43.12628936767578,5.965
4.3911,2.153446889245767,-42.81366729736328,5.965
4.3911,2.2962320014720703,-42.80743789672852,5.965
4.3911,2.4390171136983736,-43.31896209716797,5.965
4.3911,2.5807823322659167,-42.71426773071289,5.965
4.3911,2.72356744449222,-42.8082160949707,5.965
4.3911,2.8663525567185233,-43.11959457397461,5.965
4.3911,3.008117775286067,-42.93538665771485,5.965
4.3911,3.1509028875123697,-42.95225524902344,5.965
4.3911,3.2926681060799137,-43.73586654663086,5.965
4.3911,3.4354532183062165,-42.98051071166992,5.965
4.3911,3.5782383305325194,-42.92498016357422,5.965
4.3911,3.720003549100063,-43.571319580078125,5.965
4.3911,3.862788661326366,-43.15654754638672,5.965
4.3911,4.005573773552669,-43.47223663330078,5.965
4.3911,4.147338992120214,-43.00243377685547,5.965
4.3911,4.290124104346516,-42.84024810791016,5.965
4.3911,4.431889322914061,-43.02856063842773,5.965
4.3911,4.574674435140364,-43.20148468017578,5.965
4.3911,4.717459547366666,-43.05237579345703,5.965
4.3911,4.8592247659342105,-43.45774841308594,5.965
4.3911,5.0020098781605125,-42.474639892578125,5.965
4.3911,5.144794990386816,-43.03593826293945,5.965
4.3911,5.28656020895436,-43.01874542236328,5.965
4.3911,5.286749202571742,-42.757137298583984,5.965
4.3911,5.429534314798045,-42.94195938110352,5.965
4.3911,5.57129953336559,-43.35677719116211,5.965
4.3911,5.714084645591892,-43.27800369262695,5.965
4.3911,5.856869757818195,-43.13299560546875,5.965
4.3911,5.9986349763857385,-42.99592590332031,5.965
4.3911,6.141420088612042,-43.32421875,5.965
4.3911,6.283185307179586,-43.08295440673828,5.965
4.4889,0.017789567803776943,-43.17429733276367,5.965
4.4889,0.1605746800300799,-43.58340072631836,5.965
4.4889,0.30233989859762367,-42.65675354003906,5.965
4.4889,0.4451250108239269,-43.40116500854492,5.965
4.4889,0.5879101230502298,-43.07715225219727,5.965
4.4889,0.7296753416177736,-42.79422378540039,5.965
4.4889,0.8724604538440768,-42.99755096435547,5.965
4.4889,1.0142256724116203,-43.33123779296875,5.965
4.4889,1.1570107846379236,-43.2537841796875,5.965
4.4889,1.2997958968642267,-43.02856063842773,5.965
4.4889,1.4415611154317702,-42.81990814208984,5.965
4.4889,1.5843462276580733,-42.73106002807617,5.965
4.4889,1.7271313398843766,-42.62264633178711,5.965
4.4889,1.86889655845192,-43.12472534179688,5.965
4.4889,2.011681670678223,-43.04004287719727,5.965
4.4889,2.153446889245767,-42.95145034790039,5.965
4.4889,2.2962320014720703,-42.67559051513672,5.965
4.4889,2.4390171136983736,-43.11625289916992,5.965
4.4889,2.5807823322659167,-42.833194732666016,5.965
4.4889,2.72356744449222,-42.68012237548828,5.965
4.4889,2.8663525567185233,-42.70513534545898,5.965
4.4889,3.008117775286067,-42.62231063842773,5.965
4.4889,3.1509028875123697,-43.32948303222656,5.965
4.4889,3.2926681060799137,-43.28321075439453,5.965
4.4889,3.4354532183062165,-42.9482307434082,5.965
4.4889,3.5782383305325194,-43.82250595092773,5.965
4.4889,3.720003549100063,-42.69147491455078,5.965
4.4889,3.862788661326366,-43.562049865722656,5.965
4.4889,4.005573773552669,-43.14475631713867,5.965
4.4889,4.147338992120214,-43.08378219604492,5.965
4.4889,4.290124104346516,-43.2563705444336,5.965
4.4889,4.431889322914061,-43.315460205078125,5.965
4.4889,4.574674435140364,-43.37802505493164,5.965
4.4889,4.717459547366666,-43.1734504699707,5.965
4.4889,4.8592247659342105,-42.85753631591797,5.965
4.4889,5.0020098781605125,-43.051551818847656,5.965
4.4889,5.144794990386816,-42.96111297607422,5.965
4.4889,5.28656020895436,-42.77023696899414,5.965
4.4889,5.286749202571742,-43.1599235534668,5.965
4.4889,5.429534314798045,-43.26068878173828,5.965
4.4889,5.57129953336559,-42.68465805053711,5.965
4.4889,5.714084645591892,-42.92578125,5.965
4.4889,5.856869757818195,-42.78182601928711,5.965
4.4889,5.9986349763857385,-43.08460998535156,5.965
4.4889,6.141420088612042,-43.21770477294922,5.965
4.4889,6.283185307179586,-43.08046722412109,5.965
4.5867,0.017789567803776943,-42.68844223022461,5.965
4.5867,0.1605746800300799,-43.15654754638672,5.965
4.5867,0.30233989859762367,-42.70969772338867,5.965
4.5867,0.4451250108239269,-42.95708465576172,5.965
4.5867,0.5879101230502298,-43.21599578857422,5.965
4.5867,0.7296753416177736,-42.94599151611328,5.965
4.5867,0.8724604538440768,-42.772552490234375,5.965
4.5867,1.0142256724116203,-43.694618225097656,5.965
4.5867,1.1570107846379236,-42.60396194458008,5.965
4.5867,1.2997958968642267,-43.26674270629883,5.965
4.5867,1.4415611154317702,-42.66352462768555,5.965
4.5867,1.5843462276580733,-42.84103393554688,5.965
4.5867,1.7271313398843766,-43.04826354980469,5.965
4.5867,1.86889655845192,-42.86620330810547,5.965
4.5867,2.011681670678223,-43.12294006347656,5.965
4.5867,2.153446889245767,-42.97484588623047,5.965
4.5867,2.2962320014720703,-43.031837463378906,5.965
4.5867,2.4390171136983736,-42.7371826171875,5.965
4.5867,2.5807823322659167,-43.12880325317383,5.965
4.5867,2.72356744449222,-42.78182601928711,5.965
4.5867,2.8663525567185233,-43.1734504699707,5.965
4.5867,3.008117775286067,-42.96272659301758,5.965
4.5867,3.1509028875123697,-42.99592590332031,5.965
4.5867,3.2926681060799137,-42.80977249145508,5.965
4.5867,3.4354532183062165,-42.982940673828125,5.965
4.5867,3.5782383305325194,-42.977272033691406,5.965
4.5867,3.720003549100063,-42.692230224609375,5.965
4.5867,3.862788661326366,-42.65901184082031,5.965
4.5867,4.005573773552669,-42.71807861328125,5.965
4.5867,4.147338992120214,-42.96434020996094,5.965
4.5867,4.290124104346516,-42.78569793701172,5.965
4.5867,4.431889322914061,-43.01792907714844,5.965
4.5867,4.574674435140364,-43.50592803955078,5.965
4.5867,4.717459547366666,-43.22969818115234,5.965
4.5867,4.8592247659342105,-43.30497360229492,5.965
4.5867,5.0020098781605125,-43.17091369628906,5.965
4.5867,5.144794990386816,-42.52277374267578,5.965
4.5867,5.28656020895436,-43.11457824707031,5.965
4.5867,5.286749202571742,-42.864627838134766,5.965
4.5867,5.429534314798045,-43.06309509277344,5.965
4.5867,5.57129953336559,-43.32860565185547,5.965
4.5867,5.714084645591892,-43.3647346496582,5.965
4.5867,5.856869757818195,-43.34883499145508,5.965
4.5867,5.9986349763857385,-42.99267578125,5.965
4.5867,6.141420088612042,-43.21343231201172,5.965
4.5867,6.283185307179586,-42.8843879699707,5.965
4.6844,0.017789567803776943,-43.26674270629883,5.965
4.6844,0.1605746800300799,-43.315460205078125,5.965
4.6844,0.30233989859762367,-42.80665969848633,5.965
4.6844,0.4451250108239269,-42.58684158325195,5.965
4.6844,0.5879101230502298,-42.56084442138672,5.965
4.6844,0.7296753416177736,-43.32071304321289,5.965
4.6844,0.8724604538440768,-42.718841552734375,5.965
4.6844,1.0142256724116203,-43.06639862060547,5.965
4.6844,1.1570107846379236,-42.88993835449219,5.965
4.6844,1.2997958968642267,-42.73258972167969,5.965
4.6844,1.4415611154317702,-42.7981071472168,5.965
4.6844,1.5843462276580733,-42.94742965698242,5.965
4.6844,1.7271313398843766,-42.98699569702149,5.965
4.6844,1.86889655845192,-42.73794937133789,5.965
4.6844,2.011681670678223,-42.671817779541016,5.965
4.6844,2.153446889245767,-42.83633041381836,5.965
4.6844,2.2962320014720703,-43.5214958190918,5.965
4.6844,2.4390171136983736,-42.7257080078125,5.965
4.6844,2.5807823322659167,-42.64699172973633,5.965
4.6844,2.72356744449222,-43.26414489746094,5.965
4.6844,2.8663525567185233,-43.14980697631836,5.965
4.6844,3.008117775286067,-42.59406280517578,5.965
4.6844,3.1509028875123697,-43.22113037109375,5.965
4.6844,3.2926681060799137,-42.57778930664063,5.965
4.6844,3.4354532183062165,-43.08626937866211,5.965
4.6844,3.5782383305325194,-42.70361709594727,5.965
4.6844,3.720003549100063,-43.00569152832031,5.965
4.6844,3.862788661326366,-43.271934509277344,5.965
4.6844,4.005573773552669,-43.27973937988281,5.965
4.6844,4.147338992120214,-43.090423583984375,5.965
4.6844,4.290124104346516,-43.32860565185547,5.965
4.6844,4.431889322914061,-42.95145034790039,5.965
4.6844,4.574674435140364,-42.872520446777344,5.965
4.6844,4.717459547366666,-42.92098236083984,5.965
4.6844,4.8592247659342105,-43.14391708374024,5.965
4.6844,5.0020098781605125,-43.10373306274414,5.965
4.6844,5.144794990386816,-42.66051483154297,5.965
4.6844,5.28656020895436,-42.70969772338867,5.965
4.6844,5.286749202571742,-43.34266662597656,5.965
4.6844,5.429534314798045,-42.79888153076172,5.965
4.6844,5.57129953336559,-42.77796173095703,5.965
4.6844,5.714084645591892,-42.91619110107422,5.965
4.6844,5.856869757818195,-43.21257781982422,5.965
4.6844,5.9986349763857385,-43.123779296875,5.965
4.6844,6.141420088612042,-42.46916580200195,5.965
4.6844,6.283185307179586,-42.83633041381836,5.965
4.7822,0.017789567803776943,-43.05484771728516,5.965
4.7822,0.1605746800300799,-43.22883987426758,5.965
4.7822,0.30233989859762367,-42.9273796081543,5.965
4.7822,0.4451250108239269,-42.760215759277344,5.965
4.7822,0.5879101230502298,-43.20148468017578,5.965
4.7822,0.7296753416177736,-43.05567169189453,5.965
4.7822,0.8724604538440768,-43.40652084350586,5.965
4.7822,1.0142256724116203,-43.13383483886719,5.965
4.7822,1.1570107846379236,-42.869361877441406,5.965
4.7822,1.2997958968642267,-43.27800369262695,5.965
4.7822,1.4415611154317702,-42.639156341552734,5.965
4.7822,1.5843462276580733,-42.88518142700195,5.965
4.7822,1.7271313398843766,-43.30323028564453,5.965
4.7822,1.86889655845192,-42.84260177612305,5.965
4.7822,2.011681670678223,-43.27713394165039,5.965
4.7822,2.153446889245767,-43.035118103027344,5.965
4.7822,2.2962320014720703,-43.08544158935547,5.965
4.7822,2.4390171136983736,-42.55937194824219,5.965
4.7822,2.5807823322659167,-43.29538345336914,5.965
4.7822,2.72356744449222,-43.12126922607422,5.965
4.7822,2.8663525567185233,-42.73794937133789,5.965
4.7822,3.008117775286067,-39.15497589111328,6.028290414878398
4.7822,3.1509028875123697,-30.81747817993164,6.029291845493563
4.7822,3.2926681060799137,-33.00204849243164,6.03049356223176
4.7822,3.4354532183062165,-34.401641845703125,6.031695278969957
4.7822,3.5782383305325194,-43.39046859741211,5.965
4.7822,3.720003549100063,-42.48648071289063,5.965
4.7822,3.862788661326366,-43.00612258911133,5.965
