Gain [dB],Phase [rads.],Amplitude [dBm],Frequency [Hz],Flag
4.0,0.0,3023951225093.332,0.0,0
4.0,0.07953399123012135,3026491616613.1934,0.0,0
4.0,0.1590679824602427,3034630932218.437,0.0,0
4.0,0.23860197369036407,3046463951548.2837,0.0,0
4.0,0.3181359649204854,3064936056018.583,0.0,0
4.0,0.39766995615060674,3088262355026.107,0.0,0
4.0,0.47720394738072813,3117407302941.7524,0.0,0
4.0,0.5567379386108494,3152934127796.4053,0.0,0
4.0,0.6362719298409708,3196077531035.7964,0.0,0
4.0,0.7158059210710922,3244235087050.6206,0.0,0
4.0,0.7953399123012135,3298759581771.132,0.0,0
4.0,0.8748739035313349,3360021316178.2236,0.0,0
4.0,0.9544078947614563,3435084436031.6924,0.0,0
4.0,1.0339418859915777,3512655858137.7705,0.0,0
4.0,1.1134758772216988,3603443212383.0913,0.0,0
4.0,1.1930098684518202,3709178698076.0093,0.0,0
4.0,1.2725438596819416,3827816278642.224,0.0,0
4.0,1.352077850912063,3956350045992.1978,0.0,0
4.0,1.4316118421421844,4108615425477.553,0.0,0
4.0,1.5111458333723056,4278435169839.944,0.0,0
4.0,1.590679824602427,4476009626640.343,0.0,0
4.0,1.6702138158325484,4703844687079.282,0.0,0
4.0,1.7497478070626697,4962486835890.934,0.0,0
4.0,1.8292817982927911,5271957513430.555,0.0,0
4.0,1.9088157895229125,5634636773663.714,0.0,0
4.0,1.9883497807530337,6067069090368.221,0.0,0
4.0,2.0678837719831553,6591928024036.169,0.0,0
4.0,2.1474177632132765,7235144950911.484,0.0,0
4.0,2.2269517544433977,8027011000147.3125,0.0,0
4.0,2.3064857456735193,9050482998097.084,0.0,0
4.0,2.3860197369036404,10371049583188.602,0.0,0
4.0,2.465553728133762,12119674321946.145,0.0,0
4.0,2.5450877193638832,14505049382758.246,0.0,0
4.0,2.6246217105940044,17851069343265.996,0.0,0
4.0,2.704155701824126,22731621811927.72,0.0,0
4.0,2.783689693054247,30071895948170.473,0.0,0
4.0,2.863223684284369,41443595018234.69,0.0,0
4.0,2.94275767551449,59111784197426.92,0.0,0
4.0,3.022291666744611,83717963707176.86,0.0,0
4.0,3.1018256579747328,106355345231119.05,0.0,0
4.0,3.181359649204854,106338521197542.25,0.0,0
4.0,3.2608936404349755,83625510583959.5,0.0,0
4.0,3.3404276316650967,59056145134842.8,0.0,0
4.0,3.419961622895218,41418289109889.22,0.0,0
4.0,3.4994956141253395,30070195913948.91,0.0,0
4.0,3.5790296053554607,22730976352971.21,0.0,0
4.0,3.6585635965855823,17852661846747.56,0.0,0
4.0,3.7380975878157034,14495937388747.248,0.0,0
4.0,3.817631579045825,12119296328735.152,0.0,0
4.0,3.8971655702759462,10366666431097.209,0.0,0
4.0,3.9766995615060674,9052765087438.672,0.0,0
4.0,4.056233552736189,8029869302962.254,0.0,0
4.0,4.135767543966311,7233981077911.435,0.0,0
4.0,4.215301535196431,6592378177321.983,0.0,0
4.0,4.294835526426553,6071286501611.323,0.0,0
4.0,4.374369517656675,5634057877945.084,0.0,0
4.0,4.453903508886795,5269249148330.076,0.0,0
4.0,4.533437500116917,4964735780438.188,0.0,0
4.0,4.6129714913470385,4702586481136.57,0.0,0
4.0,4.692505482577159,4481838989901.201,0.0,0
4.0,4.772039473807281,4278391283073.287,0.0,0
4.0,4.8515734650374025,4103958769268.096,0.0,0
4.0,4.931107456267524,3959202560628.6313,0.0,0
4.0,5.010641447497645,3823768781090.445,0.0,0
4.0,5.0901754387277665,3705809324919.4204,0.0,0
4.0,5.169709429957888,3606408535248.29,0.0,0
4.0,5.249243421188009,3515059917608.59,0.0,0
4.0,5.32877741241813,3432214296541.258,0.0,0
4.0,5.408311403648252,3361498199453.5767,0.0,0
4.0,5.487845394878374,3299143563607.636,0.0,0
4.0,5.567379386108494,3244084888334.0073,0.0,0
4.0,5.646913377338616,3194624694129.782,0.0,0
4.0,5.726447368568738,3152932178420.452,0.0,0
4.0,5.805981359798858,3117708141807.3853,0.0,0
4.0,5.88551535102898,3088595884001.559,0.0,0
4.0,5.9650493422591016,3065503471543.3726,0.0,0
4.0,6.044583333489222,3046917961332.9976,0.0,0
4.0,6.124117324719344,3034053801698.59,0.0,0
4.0,6.2036513159494655,3026481959192.636,0.0,0
4.0,6.283185307179586,3023951225094.2495,0.0,0
4.074576271186441,0.0,3038342237598.9185,0.0,0
4.074576271186441,0.07953399123012135,3040868284318.161,0.0,0
4.074576271186441,0.1590679824602427,3048535415401.1294,0.0,0
4.074576271186441,0.23860197369036407,3061618254541.3022,0.0,0
4.074576271186441,0.3181359649204854,3080422615694.1987,0.0,0
4.074576271186441,0.39766995615060674,3104059535212.4336,0.0,0
4.074576271186441,0.47720394738072813,3133553323199.421,0.0,0
4.074576271186441,0.5567379386108494,3169262281507.2217,0.0,0
4.074576271186441,0.6362719298409708,3210636066527.159,0.0,0
4.074576271186441,0.7158059210710922,3260533196535.219,0.0,0
4.074576271186441,0.7953399123012135,3316945815992.1133,0.0,0
4.074576271186441,0.8748739035313349,3377511886871.1157,0.0,0
4.074576271186441,0.9544078947614563,3454478256550.1035,0.0,0
4.074576271186441,1.0339418859915777,3535593132597.604,0.0,0
4.074576271186441,1.1134758772216988,3629821973172.4365,0.0,0
4.074576271186441,1.1930098684518202,3735486927562.793,0.0,0
4.074576271186441,1.2725438596819416,3854336499024.541,0.0,0
4.074576271186441,1.352077850912063,3989607089042.5015,0.0,0
4.074576271186441,1.4316118421421844,4139119222412.39,0.0,0
4.074576271186441,1.5111458333723056,4317596076703.294,0.0,0
4.074576271186441,1.590679824602427,4518389952738.7705,0.0,0
4.074576271186441,1.6702138158325484,4748302437272.718,0.0,0
4.074576271186441,1.7497478070626697,5023136065081.682,0.0,0
4.074576271186441,1.8292817982927911,5333075715049.0,0.0,0
4.074576271186441,1.9088157895229125,5704575456805.446,0.0,0
4.074576271186441,1.9883497807530337,6152361807807.128,0.0,0
4.074576271186441,2.0678837719831553,6685823143156.616,0.0,0
4.074576271186441,2.1474177632132765,7351476494359.167,0.0,0
4.074576271186441,2.2269517544433977,8180821719910.478,0.0,0
4.074576271186441,2.3064857456735193,9233816114018.623,0.0,0
4.074576271186441,2.3860197369036404,10603491764023.625,0.0,0
4.074576271186441,2.465553728133762,12433530467326.562,0.0,0
4.074576271186441,2.5450877193638832,14939543189588.04,0.0,0
4.074576271186441,2.6246217105940044,18503047292690.164,0.0,0
4.074576271186441,2.704155701824126,23748208525018.297,0.0,0
4.074576271186441,2.783689693054247,31813395776930.152,0.0,0
4.074576271186441,2.863223684284369,44719072541551.69,0.0,0
4.074576271186441,2.94275767551449,65664353058428.07,0.0,0
4.074576271186441,3.022291666744611,97391399781022.16,0.0,0
4.074576271186441,3.1018256579747328,129022091212333.83,0.0,0
4.074576271186441,3.181359649204854,128977155750484.84,0.0,0
4.074576271186441,3.2608936404349755,97392619015102.77,0.0,0
4.074576271186441,3.3404276316650967,65723643609192.74,0.0,0
4.074576271186441,3.419961622895218,44715071071489.79,0.0,0
4.074576271186441,3.4994956141253395,31824578526647.504,0.0,0
4.074576271186441,3.5790296053554607,23752603976765.332,0.0,0
4.074576271186441,3.6585635965855823,18496750859018.062,0.0,0
4.074576271186441,3.7380975878157034,14945592757979.9,0.0,0
4.074576271186441,3.817631579045825,12431100504623.508,0.0,0
4.074576271186441,3.8971655702759462,10604947125789.215,0.0,0
4.074576271186441,3.9766995615060674,9232853746394.291,0.0,0
4.074576271186441,4.056233552736189,8178669450156.378,0.0,0
4.074576271186441,4.135767543966311,7352777610330.116,0.0,0
4.074576271186441,4.215301535196431,6688306839346.3955,0.0,0
4.074576271186441,4.294835526426553,6150648001816.051,0.0,0
4.074576271186441,4.374369517656675,5704360738757.998,0.0,0
4.074576271186441,4.453903508886795,5331664169870.909,0.0,0
4.074576271186441,4.533437500116917,5018838205489.313,0.0,0
4.074576271186441,4.6129714913470385,4749609685741.877,0.0,0
4.074576271186441,4.692505482577159,4516093450487.238,0.0,0
4.074576271186441,4.772039473807281,4316255218604.272,0.0,0
4.074576271186441,4.8515734650374025,4141137174794.691,0.0,0
4.074576271186441,4.931107456267524,3987446337517.078,0.0,0
4.074576271186441,5.010641447497645,3850836207668.2925,0.0,0
4.074576271186441,5.0901754387277665,3733698820360.765,0.0,0
4.074576271186441,5.169709429957888,3631231161218.9365,0.0,0
4.074576271186441,5.249243421188009,3537316326192.864,0.0,0
4.074576271186441,5.32877741241813,3454174651826.9517,0.0,0
4.074576271186441,5.408311403648252,3380435308155.5396,0.0,0
4.074576271186441,5.487845394878374,3316720647542.1553,0.0,0
4.074576271186441,5.567379386108494,3260581369473.3477,0.0,0
4.074576271186441,5.646913377338616,3211102179391.6777,0.0,0
4.074576271186441,5.726447368568738,3168838160668.2773,0.0,0
4.074576271186441,5.805981359798858,3132953551498.2554,0.0,0
4.074576271186441,5.88551535102898,3104248300679.931,0.0,0
4.074576271186441,5.9650493422591016,3080195508329.7607,0.0,0
4.074576271186441,6.044583333489222,3062129415239.2505,0.0,0
4.074576271186441,6.124117324719344,3048857888173.3086,0.0,0
4.074576271186441,6.2036513159494655,3040973949903.607,0.0,0
4.074576271186441,6.283185307179586,3038342237594.5996,0.0,0
4.149152542372882,0.0,3052442756416.6387,0.0,0
4.149152542372882,0.07953399123012135,3054868841996.884,0.0,0
4.149152542372882,0.1590679824602427,3062400324058.4995,0.0,0
4.149152542372882,0.23860197369036407,3075941245283.5703,0.0,0
4.149152542372882,0.3181359649204854,3094472426705.674,0.0,0
4.149152542372882,0.39766995615060674,3118814608524.891,0.0,0
4.149152542372882,0.47720394738072813,3149313756589.793,0.0,0
4.149152542372882,0.5567379386108494,3185704849895.964,0.0,0
4.149152542372882,0.6362719298409708,3228663092651.782,0.0,0
4.149152542372882,0.7158059210710922,3277566594923.702,0.0,0
4.149152542372882,0.7953399123012135,3336115468137.706,0.0,0
4.149152542372882,0.8748739035313349,3401908666847.1006,0.0,0
4.149152542372882,0.9544078947614563,3471520296635.062,0.0,0
4.149152542372882,1.0339418859915777,3560902843065.3984,0.0,0
4.149152542372882,1.1134758772216988,3650706233326.769,0.0,0
4.149152542372882,1.1930098684518202,3760962280614.285,0.0,0
4.149152542372882,1.2725438596819416,3885474152716.324,0.0,0
4.149152542372882,1.352077850912063,4018450903305.5894,0.0,0
4.149152542372882,1.4316118421421844,4176941563350.271,0.0,0
4.149152542372882,1.5111458333723056,4352061957525.597,0.0,0
4.149152542372882,1.590679824602427,4559193710355.754,0.0,0
4.149152542372882,1.6702138158325484,4794945213310.539,0.0,0
4.149152542372882,1.7497478070626697,5070163332639.027,0.0,0
4.149152542372882,1.8292817982927911,5398183391730.764,0.0,0
4.149152542372882,1.9088157895229125,5771688944651.328,0.0,0
4.149152542372882,1.9883497807530337,6226603364663.599,0.0,0
4.149152542372882,2.0678837719831553,6785089532485.309,0.0,0
4.149152542372882,2.1474177632132765,7454056633729.741,0.0,0
4.149152542372882,2.2269517544433977,8319044707087.224,0.0,0
4.149152542372882,2.3064857456735193,9411596776310.287,0.0,0
4.149152542372882,2.3860197369036404,10832293644179.926,0.0,0
4.149152542372882,2.465553728133762,12741658748083.752,0.0,0
4.149152542372882,2.5450877193638832,15381263226570.514,0.0,0
4.149152542372882,2.6246217105940044,19150752432010.348,0.0,0
4.149152542372882,2.704155701824126,24765761215568.297,0.0,0
4.149152542372882,2.783689693054247,33592411329786.32,0.0,0
4.149152542372882,2.863223684284369,48172332510238.61,0.0,0
4.149152542372882,2.94275767551449,73143668587290.14,0.0,0
4.149152542372882,3.022291666744611,113856311172520.92,0.0,0
4.149152542372882,3.1018256579747328,147904685356991.03,0.0,0
4.149152542372882,3.181359649204854,147963291302608.12,0.0,0
4.149152542372882,3.2608936404349755,114008301590656.3,0.0,0
4.149152542372882,3.3404276316650967,73118630697350.45,0.0,0
4.149152542372882,3.419961622895218,48156822781501.94,0.0,0
4.149152542372882,3.4994956141253395,33605329663734.94,0.0,0
4.149152542372882,3.5790296053554607,24770671773333.63,0.0,0
4.149152542372882,3.6585635965855823,19133477716305.22,0.0,0
4.149152542372882,3.7380975878157034,15370930840025.443,0.0,0
4.149152542372882,3.817631579045825,12738269878948.533,0.0,0
4.149152542372882,3.8971655702759462,10832581359240.031,0.0,0
4.149152542372882,3.9766995615060674,9408762450539.023,0.0,0
4.149152542372882,4.056233552736189,8322474967203.956,0.0,0
4.149152542372882,4.135767543966311,7466920334809.67,0.0,0
4.149152542372882,4.215301535196431,6784258468332.247,0.0,0
4.149152542372882,4.294835526426553,6229250251962.404,0.0,0
4.149152542372882,4.374369517656675,5772077651510.8955,0.0,0
4.149152542372882,4.453903508886795,5392959880135.983,0.0,0
4.149152542372882,4.533437500116917,5068989875007.038,0.0,0
4.149152542372882,4.6129714913470385,4794167190433.024,0.0,0
4.149152542372882,4.692505482577159,4557737292130.9375,0.0,0
4.149152542372882,4.772039473807281,4353783913239.3813,0.0,0
4.149152542372882,4.8515734650374025,4176431272313.714,0.0,0
4.149152542372882,4.931107456267524,4018907985868.3203,0.0,0
4.149152542372882,5.010641447497645,3881560660184.6494,0.0,0
4.149152542372882,5.0901754387277665,3759779671734.587,0.0,0
4.149152542372882,5.169709429957888,3653712011528.201,0.0,0
4.149152542372882,5.249243421188009,3555616961207.048,0.0,0
4.149152542372882,5.32877741241813,3474181009955.6504,0.0,0
4.149152542372882,5.408311403648252,3401843694900.6035,0.0,0
4.149152542372882,5.487845394878374,3335316028909.608,0.0,0
4.149152542372882,5.567379386108494,3278825669775.1987,0.0,0
4.149152542372882,5.646913377338616,3228092276066.9746,0.0,0
4.149152542372882,5.726447368568738,3186201834482.383,0.0,0
4.149152542372882,5.805981359798858,3150029420725.054,0.0,0
4.149152542372882,5.88551535102898,3119196510208.8896,0.0,0
4.149152542372882,5.9650493422591016,3094883793526.044,0.0,0
4.149152542372882,6.044583333489222,3076551151564.1484,0.0,0
4.149152542372882,6.124117324719344,3062970006631.998,0.0,0
4.149152542372882,6.2036513159494655,3054837057564.1143,0.0,0
4.149152542372882,6.283185307179586,3052442756417.4126,0.0,0
4.2237288135593225,0.0,3066240511566.8276,0.0,0
4.2237288135593225,0.07953399123012135,3069004367938.234,0.0,0
4.2237288135593225,0.1590679824602427,3076726768779.237,0.0,0
4.2237288135593225,0.23860197369036407,3090223318883.2764,0.0,0
4.2237288135593225,0.3181359649204854,3109632057547.446,0.0,0
4.2237288135593225,0.39766995615060674,3134761039820.075,0.0,0
4.2237288135593225,0.47720394738072813,3165004633045.901,0.0,0
4.2237288135593225,0.5567379386108494,3201040679951.626,0.0,0
4.2237288135593225,0.6362719298409708,3245754149419.6978,0.0,0
4.2237288135593225,0.7158059210710922,3295514851872.891,0.0,0
4.2237288135593225,0.7953399123012135,3353900987109.4634,0.0,0
4.2237288135593225,0.8748739035313349,3418740269800.2383,0.0,0
4.2237288135593225,0.9544078947614563,3494380855681.941,0.0,0
4.2237288135593225,1.0339418859915777,3581673446372.3545,0.0,0
4.2237288135593225,1.1134758772216988,3676778309559.592,0.0,0
4.2237288135593225,1.1930098684518202,3782436951661.293,0.0,0
4.2237288135593225,1.2725438596819416,3908924924904.0005,0.0,0
4.2237288135593225,1.352077850912063,4047715825211.8765,0.0,0
4.2237288135593225,1.4316118421421844,4210020310033.4937,0.0,0
4.2237288135593225,1.5111458333723056,4389647425556.664,0.0,0
4.2237288135593225,1.590679824602427,4600020762327.206,0.0,0
4.2237288135593225,1.6702138158325484,4840452664879.995,0.0,0
4.2237288135593225,1.7497478070626697,5121791506639.972,0.0,0
4.2237288135593225,1.8292817982927911,5451848426665.112,0.0,0
4.2237288135593225,1.9088157895229125,5840326805920.708,0.0,0
4.2237288135593225,1.9883497807530337,6308180050064.568,0.0,0
4.2237288135593225,2.0678837719831553,6876574579778.666,0.0,0
4.2237288135593225,2.1474177632132765,7572757760608.256,0.0,0
4.2237288135593225,2.2269517544433977,8456228410552.563,0.0,0
4.2237288135593225,2.3064857456735193,9584853056059.955,0.0,0
4.2237288135593225,2.3860197369036404,11054150443624.371,0.0,0
4.2237288135593225,2.465553728133762,13038933025164.256,0.0,0
4.2237288135593225,2.5450877193638832,15796807467820.553,0.0,0
4.2237288135593225,2.6246217105940044,19769795246978.527,0.0,0
4.2237288135593225,2.704155701824126,25773540926179.664,0.0,0
4.2237288135593225,2.783689693054247,35371914905036.72,0.0,0
4.2237288135593225,2.863223684284369,51618891656517.195,0.0,0
4.2237288135593225,2.94275767551449,81268629896699.95,0.0,0
4.2237288135593225,3.022291666744611,134106610768470.06,0.0,0
4.2237288135593225,3.1018256579747328,165651986244408.34,0.0,0
4.2237288135593225,3.181359649204854,165643471182859.84,0.0,0
4.2237288135593225,3.2608936404349755,134208014103291.16,0.0,0
4.2237288135593225,3.3404276316650967,81162302686159.4,0.0,0
4.2237288135593225,3.419961622895218,51730020481301.24,0.0,0
4.2237288135593225,3.4994956141253395,35365810357134.46,0.0,0
4.2237288135593225,3.5790296053554607,25763766606561.176,0.0,0
4.2237288135593225,3.6585635965855823,19731198941198.098,0.0,0
4.2237288135593225,3.7380975878157034,15785526041569.541,0.0,0
4.2237288135593225,3.817631579045825,13033191135844.256,0.0,0
4.2237288135593225,3.8971655702759462,11058556895016.695,0.0,0
4.2237288135593225,3.9766995615060674,9582667014511.844,0.0,0
4.2237288135593225,4.056233552736189,8455787401324.759,0.0,0
4.2237288135593225,4.135767543966311,7577091008573.77,0.0,0
4.2237288135593225,4.215301535196431,6874782931562.9,0.0,0
4.2237288135593225,4.294835526426553,6303780636389.27,0.0,0
4.2237288135593225,4.374369517656675,5839234734083.971,0.0,0
4.2237288135593225,4.453903508886795,5449550367990.494,0.0,0
4.2237288135593225,4.533437500116917,5119027846644.5205,0.0,0
4.2237288135593225,4.6129714913470385,4839252997512.738,0.0,0
4.2237288135593225,4.692505482577159,4596942111205.027,0.0,0
4.2237288135593225,4.772039473807281,4390682159450.763,0.0,0
4.2237288135593225,4.8515734650374025,4211744666000.1606,0.0,0
4.2237288135593225,4.931107456267524,4049228495033.0874,0.0,0
4.2237288135593225,5.010641447497645,3908521914771.788,0.0,0
4.2237288135593225,5.0901754387277665,3785903499430.152,0.0,0
4.2237288135593225,5.169709429957888,3677855366808.0205,0.0,0
4.2237288135593225,5.249243421188009,3581335116004.2637,0.0,0
4.2237288135593225,5.32877741241813,3494008509875.979,0.0,0
4.2237288135593225,5.408311403648252,3419121105185.7705,0.0,0
4.2237288135593225,5.487845394878374,3353107333418.835,0.0,0
4.2237288135593225,5.567379386108494,3295848533961.63,0.0,0
4.2237288135593225,5.646913377338616,3245147620762.562,0.0,0
4.2237288135593225,5.726447368568738,3201368777730.4707,0.0,0
4.2237288135593225,5.805981359798858,3163988569951.579,0.0,0
4.2237288135593225,5.88551535102898,3134181638268.993,0.0,0
4.2237288135593225,5.9650493422591016,3108743318349.342,0.0,0
4.2237288135593225,6.044583333489222,3090381716579.7285,0.0,0
4.2237288135593225,6.124117324719344,3077170614655.075,0.0,0
4.2237288135593225,6.2036513159494655,3068969960422.837,0.0,0
4.2237288135593225,6.283185307179586,3066240511568.883,0.0,0
4.2983050847457624,0.0,3079723171513.1,0.0,0
4.2983050847457624,0.07953399123012135,3082434496975.102,0.0,0
4.2983050847457624,0.1590679824602427,3089934216272.5825,0.0,0
4.2983050847457624,0.23860197369036407,3104168386003.3315,0.0,0
4.2983050847457624,0.3181359649204854,3123035479240.731,0.0,0
4.2983050847457624,0.39766995615060674,3148686120391.683,0.0,0
4.2983050847457624,0.47720394738072813,3179201527363.142,0.0,0
4.2983050847457624,0.5567379386108494,3216122216079.2363,0.0,0
4.2983050847457624,0.6362719298409708,3260002467344.7114,0.0,0
4.2983050847457624,0.7158059210710922,3311721989265.7437,0.0,0
4.2983050847457624,0.7953399123012135,3370796757765.983,0.0,0
4.2983050847457624,0.8748739035313349,3436461829560.3867,0.0,0
4.2983050847457624,0.9544078947614563,3512809556446.699,0.0,0
4.2983050847457624,1.0339418859915777,3601979285093.4688,0.0,0
4.2983050847457624,1.1134758772216988,3697618502079.2725,0.0,0
4.2983050847457624,1.1930098684518202,3807878867740.176,0.0,0
4.2983050847457624,1.2725438596819416,3936394037910.199,0.0,0
4.2983050847457624,1.352077850912063,4078072647386.5737,0.0,0
4.2983050847457624,1.4316118421421844,4242920537966.2827,0.0,0
4.2983050847457624,1.5111458333723056,4424982739789.16,0.0,0
4.2983050847457624,1.590679824602427,4635902325837.66,0.0,0
4.2983050847457624,1.6702138158325484,4883449204479.029,0.0,0
4.2983050847457624,1.7497478070626697,5170802447152.859,0.0,0
4.2983050847457624,1.8292817982927911,5505334731555.898,0.0,0
