Gain [dB],Phase [rad],Amplitude [dBm],Frequency [Hz]
3.4356,0.0,-45.26161193847656,6026927609.511889
3.4356,0.08000235947387664,-45.41682434082031,6053961401.752191
3.4356,0.1590046894543298,-45.28578186035156,6026927609.511889
3.4356,0.23900704892820643,-45.52143096923828,5975663529.411765
3.4356,0.3180093789086596,-45.5683822631836,5981871289.111389
3.4356,0.3980117383825363,-45.46753692626953,6059568410.513142
3.4356,0.4770140683629894,-45.514915466308594,6057165406.758448
3.4356,0.5570164278368661,-45.452056884765625,6086201702.12766
3.4356,0.6360187578173192,-45.380409240722656,6064774918.648311
3.4356,0.7160211172911958,-45.47199249267578,6043548385.481853
3.4356,0.7950234472716491,-45.475685119628906,6014912590.738423
3.4356,0.8750258067455255,-45.458740234375,6025125356.695869
3.4356,0.9540281367259787,-45.44080352783203,6030331864.831038
3.4356,1.0340304961998557,-45.46066284179688,6009505832.290363
3.4356,1.1130328261803086,-45.47443389892578,6071783679.5995
3.4356,1.1930351856541854,-45.49429321289063,6029530863.579474
3.4356,1.2730375451280618,-45.57307434082031,6008104080.100125
3.4356,1.3520398751085152,-45.47306060791016,6055363153.942428
3.4356,1.4320422345823915,-45.3687744140625,6025525857.321652
3.4356,1.5110445645628447,-45.51068115234375,5958241752.190238
3.4356,1.5910469240367215,-45.500732421875,6063973917.396746
3.4356,1.6700492540171747,-45.52993774414063,6085400700.876095
3.4356,1.750051613491051,-45.40366363525391,6037140375.4693365
3.4356,1.8290539434715043,-45.61933898925781,6016114092.615769
3.4356,1.909056302945381,-45.29878234863281,6003898823.529411
3.4356,1.9880586329258343,-45.48822021484375,5980870037.546934
3.4356,2.0680609923997113,-45.46489715576172,6063973917.396746
3.4356,2.147063322380164,-45.53411102294922,6085801201.501878
3.4356,2.2270656818540404,-45.543853759765625,6012509586.983729
3.4356,2.306068011834494,-45.44085693359375,5965851264.0801
3.4356,2.386070371308371,-45.44518280029297,6019718598.247809
3.4356,2.466072730782247,-45.36750793457031,6063973917.396746
3.4356,2.5450750607627,-45.53025817871094,6085600951.188986
3.4356,2.6250774202365768,-45.55192565917969,6054962653.316646
3.4356,2.7040797502170304,-45.40792846679688,6024324355.444305
3.4356,2.7840821096909063,-45.46247100830078,6060769912.390488
3.4356,2.86308443967136,-45.537017822265625,6085400700.876095
3.4356,2.9430867991452363,-45.52886199951172,6064574668.33542
3.4356,3.0220891291256895,-45.38142395019531,6051958898.62328
3.4356,3.1020914885995663,-45.58112335205078,6095813717.146433
3.4356,3.18109381858002,-45.60057067871094,6012910087.609512
3.4356,3.2610961780538963,-45.43695831298828,6090406958.698373
3.4356,3.3400985080343495,-45.482269287109375,6015513341.677096
3.4356,3.420100867508226,-45.52819061279297,6074987684.605757
3.4356,3.499103197488679,-45.5028076171875,6001495819.774718
3.4356,3.5791055569625563,-45.31298065185547,6057165406.758448
3.4356,3.6591079164364317,-45.45762634277344,6020119098.873592
3.4356,3.738110246416886,-45.434837341308594,6045550888.610764
3.4356,3.818112605890762,-45.480224609375,5987478297.87234
3.4356,3.8971149358712154,-45.552772521972656,6058967659.574468
3.4356,3.9771172953450917,-45.46098327636719,6071783679.5995
3.4356,4.056119625325545,-45.45157623291016,6049956395.494368
3.4356,4.136121984799423,-45.523414611816406,6027328110.137672
3.4356,4.2151243147798745,-45.436798095703125,6007102828.535669
3.4356,4.295126674253751,-45.45156097412109,6062972665.832291
3.4356,4.374129004234204,-45.549072265625,6021120350.438047
3.4356,4.454131363708081,-45.48271179199219,5975663529.411765
3.4356,4.5331336936885345,-45.40192413330078,6003097822.277847
3.4356,4.613136053162412,-45.52935028076172,6064374418.022528
3.4356,4.693138412636288,-45.41452026367188,6063973917.396746
3.4356,4.772140742616742,-45.54246520996094,6051358147.684606
3.4356,4.852143102090618,-45.39783477783203,6005500826.03254
3.4356,4.931145432071071,-45.38298797607422,5998492065.081351
3.4356,5.011147791544948,-45.44847106933594,5975863779.724656
3.4356,5.0901501215254,-45.4510498046875,6034336871.088861
3.4356,5.170152480999278,-45.561561584472656,6058967659.574468
3.4356,5.2491548109797295,-45.60760498046875,5997090312.891114
3.4356,5.329157170453607,-45.489295959472656,6005500826.03254
3.4356,5.408159500434061,-45.49105072021485,6057165406.758448
3.4356,5.488161859907938,-45.547889709472656,6025726107.634543
3.4356,5.56716418988839,-45.54174041748047,6038341877.346684
3.4356,5.647166549362267,-45.62883758544922,6051558397.997497
3.4356,5.72616887934272,-45.475868225097656,6024124105.131414
3.4356,5.806171238816597,-45.53987121582031,6025325607.008761
3.4356,5.886173598290473,-45.5884017944336,6012709837.29662
3.4356,5.965175928270926,-45.4798583984375,6009305581.977472
3.4356,6.045178287744803,-45.37596893310547,6005500826.03254
3.4356,6.124180617725256,-45.32609558105469,6064174167.709637
3.4356,6.204182977199133,-45.57335662841797,6023723604.505632
3.4356,6.283185307179586,-45.51251983642578,6038742377.9724655
3.5661,0.0,-45.49964141845703,6044149136.420526
3.5661,0.08000235947387664,-45.45658874511719,6048154142.678348
3.5661,0.1590046894543298,-45.39620208740234,6085801201.501878
3.5661,0.23900704892820643,-45.41088104248047,6026527108.886107
3.5661,0.3180093789086596,-45.484954833984375,5964850012.515645
3.5661,0.3980117383825363,-45.45533752441406,6037340625.782228
3.5661,0.4770140683629894,-45.3149642944336,6026927609.511889
3.5661,0.5570164278368661,-45.587440490722656,6064174167.709637
3.5661,0.6360187578173192,-45.46407318115234,6007703579.474343
3.5661,0.7160211172911958,-45.57749938964844,6045350638.297873
3.5661,0.7950234472716491,-45.38441467285156,6005500826.03254
3.5661,0.8750258067455255,-45.519287109375,5969455769.71214
3.5661,0.9540281367259787,-45.58481597900391,6039943879.8498125
3.5661,1.0340304961998557,-45.64473724365234,6023523354.192741
3.5661,1.1130328261803086,-45.44408416748047,5959243003.754693
3.5661,1.1930351856541854,-45.457298278808594,6064174167.709637
3.5661,1.2730375451280618,-45.478118896484375,6015112841.051314
3.5661,1.3520398751085152,-45.54607391357422,6027728610.763454
3.5661,1.4320422345823915,-45.49571990966797,6032134117.6470585
3.5661,1.5110445645628447,-45.39980316162109,5995087809.762203
3.5661,1.5910469240367215,-45.58528137207031,6003097822.277847
3.5661,1.6700492540171747,-45.466827392578125,6017515844.806007
3.5661,1.750051613491051,-45.447113037109375,6064574668.33542
3.5661,1.8290539434715043,-45.46025085449219,6029931364.205256
3.5661,1.909056302945381,-45.594871520996094,5965450763.454318
3.5661,1.9880586329258343,-45.54106903076172,6026927609.511889
3.5661,2.0680609923997113,-45.52710723876953,6056764906.132666
3.5661,2.147063322380164,-45.49073791503906,5979067784.730914
3.5661,2.2270656818540404,-45.35053253173828,6072184180.225282
3.5661,2.306068011834494,-45.505767822265625,6063973917.396746
3.5661,2.386070371308371,-45.54749298095703,5989881301.627034
3.5661,2.466072730782247,-45.407859802246094,6056364405.506884
3.5661,2.5450750607627,-45.44581604003906,5996089061.326658
3.5661,2.6250774202365768,-45.53949737548828,5983273041.301627
3.5661,2.7040797502170304,-45.44132995605469,6086001451.814769
3.5661,2.7840821096909063,-45.394805908203125,6063973917.396746
3.5661,2.86308443967136,-45.51311492919922,6050757396.745933
3.5661,2.9430867991452363,-45.53357696533203,6039142878.598248
3.5661,3.0220891291256895,-45.52696228027344,6003298072.590738
3.5661,3.1020914885995663,-45.46475982666016,6093010212.765958
3.5661,3.18109381858002,-45.53266143798828,6095413216.520651
3.5661,3.2610961780538963,-45.60167694091797,6009505832.290363
3.5661,3.3400985080343495,-45.610328674316406,6006702327.909887
3.5661,3.420100867508226,-45.37320709228516,6048955143.929913
3.5661,3.499103197488679,-45.57001495361328,6019117847.309136
3.5661,3.5791055569625563,-45.52989196777344,6076990187.734669
3.5661,3.6591079164364317,-45.493141174316406,5962647259.073842
3.5661,3.738110246416886,-45.45066833496094,6064574668.33542
3.5661,3.818112605890762,-45.55953979492188,5976064030.037547
3.5661,3.8971149358712154,-45.43112182617188,6027528360.450563
3.5661,3.9771172953450917,-45.57354736328125,6019518347.934918
3.5661,4.056119625325545,-45.49143981933594,6034136620.7759695
3.5661,4.136121984799423,-45.40643310546875,6090206708.385482
3.5661,4.2151243147798745,-45.44544219970703,6019918848.5607
3.5661,4.295126674253751,-45.625282287597656,6024925106.382978
3.5661,4.374129004234204,-45.49497985839844,6063973917.396746
3.5661,4.454131363708081,-45.57366943359375,6056164155.193993
3.5661,4.5331336936885345,-45.364845275878906,6033335619.5244055
3.5661,4.613136053162412,-45.48938751220703,6040144130.162704
3.5661,4.693138412636288,-45.42619323730469,6008304330.413016
3.5661,4.772140742616742,-45.55998229980469,6041946382.978724
3.5661,4.852143102090618,-45.41462707519531,6012109086.357947
3.5661,4.931145432071071,-45.41696166992188,6014512090.11264
3.5661,5.011147791544948,-45.51384735107422,6008704831.038798
3.5661,5.0901501215254,-45.433387756347656,6003298072.590738
3.5661,5.170152480999278,-45.60420989990234,6002897571.964956
3.5661,5.2491548109797295,-45.53614044189453,6023523354.192741
3.5661,5.329157170453607,-45.5469970703125,6037540876.095119
3.5661,5.408159500434061,-45.499267578125,6066376921.15144
3.5661,5.488161859907938,-45.56704711914063,6013310588.235294
3.5661,5.56716418988839,-45.45088195800781,6040945131.414268
3.5661,5.647166549362267,-45.47242736816406,6081595944.931164
3.5661,5.72616887934272,-45.51170349121094,6071383178.973717
3.5661,5.806171238816597,-45.39777374267578,5975863779.724656
3.5661,5.886173598290473,-45.3402099609375,6082196695.869838
3.5661,5.965175928270926,-45.51836395263672,5978467033.79224
3.5661,6.045178287744803,-45.56048583984375,6046952640.801002
3.5661,6.124180617725256,-45.37169647216797,6063973917.396746
3.5661,6.204182977199133,-45.60222625732422,6028129111.389236
3.5661,6.283185307179586,-45.42121124267578,6026727359.198998
3.6966,0.0,-45.48755645751953,6064374418.022528
3.6966,0.08000235947387664,-45.600921630859375,6109630988.73592
3.6966,0.1590046894543298,-45.545501708984375,5986477046.307885
3.6966,0.23900704892820643,-45.50202941894531,6012910087.609512
3.6966,0.3180093789086596,-45.48992919921875,5971858773.466833
3.6966,0.3980117383825363,-45.4154052734375,6050356896.120151
3.6966,0.4770140683629894,-45.51544189453125,6026927609.511889
3.6966,0.5570164278368661,-45.37651062011719,6058967659.574468
3.6966,0.6360187578173192,-45.31172180175781,6005500826.03254
3.6966,0.7160211172911958,-45.40232849121094,5982472040.050062
3.6966,0.7950234472716491,-45.47532653808594,6070782428.035044
3.6966,0.8750258067455255,-45.492431640625,6040544630.788486
3.6966,0.9540281367259787,-45.56166076660156,6044349386.733417
3.6966,1.0340304961998557,-45.38311004638672,5993485807.259074
3.6966,1.1130328261803086,-45.308929443359375,6033335619.5244055
3.6966,1.1930351856541854,-45.54318237304688,5958642252.81602
3.6966,1.2730375451280618,-45.50038909912109,6003498322.903629
3.6966,1.3520398751085152,-45.5128173828125,5986276795.994994
3.6966,1.4320422345823915,-45.47908020019531,6026927609.511889
3.6966,1.5110445645628447,-45.593971252441406,6045951389.236546
3.6966,1.5910469240367215,-45.61228942871094,5975863779.724656
3.6966,1.6700492540171747,-45.49681854248047,6085400700.876095
3.6966,1.750051613491051,-45.54477691650391,6040544630.788486
3.6966,1.8290539434715043,-45.49652099609375,6041746132.6658325
3.6966,1.909056302945381,-45.58932495117188,6067177922.403004
3.6966,1.9880586329258343,-45.543983459472656,6045951389.236546
3.6966,2.0680609923997113,-45.41571807861328,6049355644.555695
3.6966,2.147063322380164,-45.49235534667969,6035338122.6533165
3.6966,2.2270656818540404,-45.40825653076172,5981270538.172716
3.6966,2.306068011834494,-45.54728698730469,6041345632.0400505
3.6966,2.386070371308371,-45.51776123046875,6064975168.961202
3.6966,2.466072730782247,-45.3896713256836,6026927609.511889
3.6966,2.5450750607627,-45.49407958984375,6035938873.5919895
3.6966,2.6250774202365768,-45.36544036865234,6000294317.897371
3.6966,2.7040797502170304,-45.44385528564453,6026126608.260325
3.6966,2.7840821096909063,-45.53230285644531,5965651013.767209
3.6966,2.86308443967136,-45.55400085449219,6058366908.635795
3.6966,2.9430867991452363,-45.577293395996094,6022522102.628285
3.6966,3.0220891291256895,-45.53186798095703,6003698573.21652
3.6966,3.1020914885995663,-45.55403900146485,6064374418.022528
3.6966,3.18109381858002,-45.58118438720703,6035538372.966208
3.6966,3.2610961780538963,-45.5957260131836,6059768660.826033
3.6966,3.3400985080343495,-45.53080749511719,6093410713.39174
3.6966,3.420100867508226,-45.405494689941406,6003698573.21652
3.6966,3.499103197488679,-45.60259246826172,5962246758.44806
3.6966,3.5791055569625563,-45.46868133544922,6083598448.060075
3.6966,3.6591079164364317,-45.32856750488281,5991683554.443054
3.6966,3.738110246416886,-45.5311279296875,6088804956.195244
3.6966,3.818112605890762,-45.47946166992188,6053360650.813517
3.6966,3.8971149358712154,-45.59405517578125,6012509586.983729
3.6966,3.9771172953450917,-45.50524139404297,6068980175.219024
3.6966,4.056119625325545,-45.51397705078125,6026927609.511889
3.6966,4.136121984799423,-45.53425598144531,6023122853.566958
3.6966,4.2151243147798745,-45.68226623535156,6012309336.670838
3.6966,4.295126674253751,-45.3494873046875,6019518347.934918
3.6966,4.374129004234204,-45.441650390625,6008104080.100125
3.6966,4.454131363708081,-45.65254211425781,6022321852.315394
3.6966,4.5331336936885345,-45.57732391357422,6018517096.370463
3.6966,4.613136053162412,-45.48430633544922,6003898823.529411
3.6966,4.693138412636288,-45.28063201904297,6005500826.03254
3.6966,4.772140742616742,-45.50530242919922,6073185431.789737
3.6966,4.852143102090618,-45.40153503417969,6027328110.137672
3.6966,4.931145432071071,-45.615516662597656,6032534618.272841
3.6966,5.011147791544948,-45.508392333984375,6057165406.758448
3.6966,5.0901501215254,-45.39722442626953,6066977672.090113
3.6966,5.170152480999278,-45.488014221191406,6020519599.499374
3.6966,5.2491548109797295,-45.60301971435547,6078592190.237797
3.6966,5.329157170453607,-45.49210357666016,6063973917.396746
3.6966,5.408159500434061,-45.34239196777344,6033335619.5244055
3.6966,5.488161859907938,-45.60367584228516,5998291814.76846
3.6966,5.56716418988839,-45.556739807128906,6046752390.488111
3.6966,5.647166549362267,-45.60338592529297,6073185431.789737
3.6966,5.72616887934272,-45.214599609375,6063973917.396746
3.6966,5.806171238816597,-45.54786682128906,5981470788.485607
3.6966,5.886173598290473,-45.51597595214844,6035137872.3404255
3.6966,5.965175928270926,-45.58099365234375,5995087809.762203
3.6966,6.045178287744803,-45.49082946777344,5988079048.811014
3.6966,6.124180617725256,-45.586708068847656,6064174167.709637
3.6966,6.204182977199133,-45.43800354003906,6026927609.511889
3.6966,6.283185307179586,-45.45906829833984,6005500826.03254
3.8271,0.0,-45.53726196289063,6029931364.205256
3.8271,0.08000235947387664,-45.36628723144531,6003898823.529411
3.8271,0.1590046894543298,-45.37631988525391,6061570913.642053
3.8271,0.23900704892820643,-45.35516357421875,6052960150.187735
3.8271,0.3180093789086596,-45.54840087890625,6020719849.812265
3.8271,0.3980117383825363,-45.3520736694336,6026927609.511889
3.8271,0.4770140683629894,-45.494720458984375,6031533366.708385
3.8271,0.5570164278368661,-45.38321685791016,5994887559.449311
3.8271,0.6360187578173192,-45.47187805175781,6004299324.155194
3.8271,0.7160211172911958,-45.4500732421875,6060569662.077597
3.8271,0.7950234472716491,-45.48457336425781,6006301827.284105
3.8271,0.8750258067455255,-45.51779174804688,6037540876.095119
3.8271,0.9540281367259787,-45.59806823730469,6041345632.0400505
3.8271,1.0340304961998557,-45.51361083984375,6036339374.2177725
3.8271,1.1130328261803086,-45.52677154541016,6033736120.150188
3.8271,1.1930351856541854,-45.44203186035156,5966251764.705882
3.8271,1.2730375451280618,-45.52671051025391,6015513341.677096
3.8271,1.3520398751085152,-45.449005126953125,5968855018.773467
3.8271,1.4320422345823915,-45.482398986816406,6034136620.7759695
3.8271,1.5110445645628447,-45.26774597167969,6064174167.709637
3.8271,1.5910469240367215,-45.39216613769531,6057766157.697122
3.8271,1.6700492540171747,-45.48138427734375,6012109086.357947
3.8271,1.750051613491051,-45.476356506347656,6038742377.9724655
3.8271,1.8290539434715043,-45.47592926025391,6057165406.758448
3.8271,1.909056302945381,-45.30583190917969,6063973917.396746
3.8271,1.9880586329258343,-45.478363037109375,6026927609.511889
3.8271,2.0680609923997113,-45.57361602783203,6018517096.370463
3.8271,2.147063322380164,-45.38808441162109,6003898823.529411
3.8271,2.2270656818540404,-45.39940643310547,6081996445.556946
3.8271,2.306068011834494,-45.40003967285156,6064774918.648311
3.8271,2.386070371308371,-45.509857177734375,6063773667.083855
3.8271,2.466072730782247,-45.34185028076172,6064574668.33542
3.8271,2.5450750607627,-45.64703369140625,5986076545.682102
3.8271,2.6250774202365768,-45.45250701904297,6059568410.513142
3.8271,2.7040797502170304,-45.51361846923828,5999893817.271589
3.8271,2.7840821096909063,-45.45349884033203,6042146633.291615
3.8271,2.86308443967136,-44.86334991455078,6063973917.396746
3.8271,2.9430867991452363,-45.45079803466797,6030732365.456821
3.8271,3.0220891291256895,-45.52706909179688,6002296821.026283
3.8271,3.1020914885995663,-45.42762756347656,6005500826.03254
3.8271,3.18109381858002,-45.58562469482422,6065175419.274093
3.8271,3.2610961780538963,-45.624420166015625,6090206708.385482
3.8271,3.3400985080343495,-45.38762664794922,6004099073.842303
3.8271,3.420100867508226,-45.35301208496094,6032134117.6470585
3.8271,3.499103197488679,-45.451263427734375,6038341877.346684
3.8271,3.5791055569625563,-45.46636199951172,5994687309.13642
3.8271,3.6591079164364317,-45.43292999267578,6003498322.903629
3.8271,3.738110246416886,-45.52825927734375,6062171664.580726
3.8271,3.818112605890762,-45.48554992675781,6018517096.370463
3.8271,3.8971149358712154,-45.355613708496094,6005500826.03254
3.8271,3.9771172953450917,-45.58000183105469,6021921351.689612
3.8271,4.056119625325545,-45.44922637939453,6063973917.396746
3.8271,4.136121984799423,-45.50664520263672,6022522102.628285
3.8271,4.2151243147798745,-45.57275390625,6057565907.384231
3.8271,4.295126674253751,-45.52573394775391,6064374418.022528
3.8271,4.374129004234204,-45.45874786376953,6014111589.486858
3.8271,4.454131363708081,-45.38320159912109,6085400700.876095
3.8271,4.5331336936885345,-45.34228515625,6004299324.155194
3.8271,4.613136053162412,-45.31458282470703,6022922603.254067
3.8271,4.693138412636288,-45.528602600097656,6064975168.961202
3.8271,4.772140742616742,-45.56963348388672,5993285556.946182
3.8271,4.852143102090618,-45.47252655029297,6050356896.120151
3.8271,4.931145432071071,-45.49459838867188,6001295569.461827
3.8271,5.011147791544948,-45.58455657958984,6055763654.568211
3.8271,5.0901501215254,-45.53179931640625,6008504580.725907
3.8271,5.170152480999278,-45.33830261230469,6036339374.2177725
3.8271,5.2491548109797295,-45.460227966308594,6055563404.25532
3.8271,5.329157170453607,-45.46880340576172,6042747384.230288
3.8271,5.408159500434061,-45.49724578857422,6005500826.03254
3.8271,5.488161859907938,-45.57093811035156,6065776170.212766
3.8271,5.56716418988839,-45.61174774169922,6015513341.677096
3.8271,5.647166549362267,-45.50811004638672,6070181677.096371
3.8271,5.72616887934272,-45.42597961425781,6041145381.727159
3.8271,5.806171238816597,-45.389892578125,6063973917.396746
3.8271,5.886173598290473,-45.58165740966797,6026927609.511889
